# HZ S RI R 50
500000 1.000555038 -0.078334935
515000 1.000022768 -0.085377231
530000 0.999325394 -0.092009998
545000 0.998709738 -0.098543778
560000 0.998209536 -0.105346187
575000 0.997636616 -0.111593112
590000 0.996702075 -0.1180683
605000 0.996085584 -0.124413833
620000 0.995316565 -0.130507767
635000 0.994405508 -0.136531457
650000 0.993572831 -0.142552599
665000 0.992850065 -0.148535609
680000 0.991909623 -0.154266312
695000 0.991079211 -0.16052179
710000 0.990150213 -0.165914952
725000 0.989170134 -0.171401858
740000 0.988501369 -0.177380159
755000 0.987129926 -0.182967737
770000 0.986275017 -0.188615486
785000 0.985315561 -0.193839773
800000 0.98405838 -0.199296399
815000 0.983145475 -0.20489338
830000 0.982177972 -0.210179269
845000 0.980921566 -0.215275287
860000 0.979806244 -0.221098423
875000 0.978699684 -0.226303085
890000 0.977326273 -0.231277182
905000 0.976212799 -0.236765936
920000 0.975022315 -0.241954147
935000 0.97382009 -0.246717482
950000 0.972602128 -0.252170503
965000 0.971318602 -0.257428884
980000 0.970133721 -0.262229949
995000 0.968648672 -0.267507761
1010000 0.967329442 -0.272534847
1025000 0.965833663 -0.277381271
1040000 0.964327275 -0.282153785
1055000 0.963109731 -0.287504076
1070000 0.961721777 -0.292070865
1085000 0.960150778 -0.297354876
1100000 0.958893179 -0.302173942
1115000 0.957169413 -0.306643843
1130000 0.955728292 -0.311984539
1145000 0.954279243 -0.316806346
1160000 0.95260024 -0.321181118
1175000 0.951177179 -0.326278239
1190000 0.949742853 -0.331146478
1205000 0.947779536 -0.335828453
1220000 0.946139872 -0.340749293
1235000 0.944652199 -0.345455229
1250000 0.942824423 -0.350031077
1265000 0.941038131 -0.35483244
1280000 0.939576923 -0.359568297
1295000 0.937542974 -0.363961488
1310000 0.935946822 -0.368953883
1325000 0.934299826 -0.373653233
1340000 0.932223021 -0.378379672
1355000 0.93054521 -0.382838606
1370000 0.928840339 -0.387180507
1385000 0.926825642 -0.391961216
1400000 0.92510432 -0.396671354
1415000 0.923021852 -0.401041388
1430000 0.921108901 -0.405701965
1445000 0.919153094 -0.410252571
1460000 0.917233407 -0.414650648
1475000 0.915381133 -0.419322848
1490000 0.913214683 -0.423607766
1505000 0.911258399 -0.427946299
1520000 0.909215748 -0.432555645
1535000 0.907042086 -0.436936557
1550000 0.905002772 -0.441141009
1565000 0.902920007 -0.445792883
1580000 0.901037871 -0.450213789
1595000 0.89857459 -0.454437553
1610000 0.896420776 -0.458685666
1625000 0.894369602 -0.463266968
1640000 0.891783952 -0.467441946
1655000 0.889845252 -0.471762984
1670000 0.887916982 -0.47622022
1685000 0.885404884 -0.480419456
1700000 0.883081614 -0.484915703
1715000 0.881090164 -0.488835692
1730000 0.878585398 -0.493316233
1745000 0.876278281 -0.497576117
1760000 0.874057888 -0.501505434
1775000 0.871800124 -0.505972862
1790000 0.869528472 -0.510045289
1805000 0.867079257 -0.514024019
1820000 0.864730656 -0.518547117
1835000 0.862436354 -0.522797882
1850000 0.859983861 -0.526610672
1865000 0.857509136 -0.530810415
1880000 0.855251967 -0.535251617
1895000 0.852388501 -0.539381563
1910000 0.850143551 -0.543396115
1925000 0.847869694 -0.547284305
1940000 0.845000028 -0.551463782
1955000 0.842576444 -0.555611848
1970000 0.840268909 -0.559568107
1985000 0.837412834 -0.563899099
2000000 0.834829866 -0.567940294
