# HZ S RI R 50
500000 1.002025604 0.041410621
515000 1.002046465 0.03782371
530000 1.002377033 0.034658897
545000 1.002369761 0.031897746
560000 1.002255797 0.028628952
575000 1.002700209 0.025747349
590000 1.002609372 0.023184923
605000 1.002826809 0.02021211
620000 1.002846956 0.01747727
635000 1.002582788 0.015291086
650000 1.002748131 0.01274592
665000 1.002916693 0.010257068
680000 1.002830505 0.008207011
695000 1.002851128 0.00563955
710000 1.003037929 0.003484081
725000 1.002908468 0.001491226
740000 1.00277388 -0.00079194
755000 1.003070116 -0.002948218
770000 1.002742528 -0.005159725
785000 1.002906084 -0.006842993
800000 1.002983808 -0.008777197
815000 1.002991199 -0.010697098
830000 1.002699255 -0.01250774
845000 1.003003001 -0.014247018
860000 1.002927064 -0.01609867
875000 1.002803206 -0.018134858
890000 1.002568602 -0.019972212
905000 1.002868413 -0.021542279
920000 1.002579569 -0.023250594
935000 1.002592444 -0.025027956
950000 1.002774715 -0.02665898
965000 1.00231409 -0.028342941
980000 1.002364873 -0.030003
995000 1.00256884 -0.031534541
1010000 1.0022192 -0.033360239
1025000 1.002328872 -0.034894742
1040000 1.0024966 -0.036127358
1055000 1.00218451 -0.037783805
1070000 1.002149224 -0.039272464
1085000 1.002219676 -0.040746156
1100000 1.001769423 -0.042127426
1115000 1.001966357 -0.043822951
1130000 1.001970529 -0.045373246
1145000 1.001684665 -0.046694662
1160000 1.001792907 -0.04814478
1175000 1.001876831 -0.049301918
1190000 1.001707196 -0.050929188
1205000 1.001496911 -0.052473835
1220000 1.001605868 -0.053680967
1235000 1.001361846 -0.055143177
1250000 1.001345038 -0.056857738
1265000 1.00128436 -0.057930666
1280000 1.00101912 -0.059398137
1295000 1.00106883 -0.060915824
1310000 1.000996708 -0.061768755
1325000 1.00083971 -0.063468955
1340000 1.000855326 -0.064794726
1355000 1.000556707 -0.065912753
1370000 1.000485539 -0.067432209
1385000 1.000604867 -0.068809404
1400000 1.000404953 -0.069853663
1415000 1.0004009 -0.071472108
1430000 1.000182628 -0.072793439
1445000 0.999955356 -0.073726519
1460000 0.99987024 -0.075147934
1475000 0.999987363 -0.076594606
1490000 0.9995718 -0.077674843
1505000 0.999477803 -0.078925363
1520000 0.999632835 -0.080160439
1535000 0.999473154 -0.081466048
1550000 0.999217331 -0.08282306
1565000 0.999184846 -0.083984024
1580000 0.998939931 -0.085163392
1595000 0.998997688 -0.086447291
1610000 0.99891442 -0.087134994
1625000 0.998688578 -0.088523507
1640000 0.998570621 -0.090018123
1655000 0.998618543 -0.090910218
1670000 0.998303651 -0.092542372
1685000 0.998399376 -0.093625247
1700000 0.997928738 -0.094565227
1715000 0.997860372 -0.095660246
1730000 0.997763514 -0.096654124
1745000 0.997740328 -0.097985446
1760000 0.997463285 -0.099187374
1775000 0.997777104 -0.100409299
1790000 0.997585356 -0.101338885
1805000 0.99737823 -0.102620556
1820000 0.997493624 -0.103775821
1835000 0.997292399 -0.104957833
1850000 0.997128903 -0.106194145
1865000 0.997375786 -0.10704527
1880000 0.997159659 -0.108331717
1895000 0.997093915 -0.109859809
1910000 0.996939659 -0.110459849
1925000 0.996779382 -0.111710242
1940000 0.996694326 -0.11305432
1955000 0.996763825 -0.113955356
1970000 0.996610879 -0.11514043
1985000 0.996584057 -0.116382546
2000000 0.99657166 -0.117541842
