# HZ S RI R 50
50000 1.001240253 0.001481938
9049500 0.973313391 0.167678043
18049000 0.894591987 0.310942918
27048500 0.783494412 0.414509534
36048000 0.659919023 0.476065397
45047500 0.539012312 0.501356542
54047000 0.429438948 0.497812032
63046500 0.334342241 0.475598216
72046000 0.254045367 0.440162867
81045500 0.1878196 0.396515697
90045000 0.134641647 0.348990321
99044500 0.091765075 0.299075722
108044000 0.057496022 0.247870191
117043500 0.03094043 0.196454092
126043000 0.011346359 0.144278854
135042500 -0.002236844 0.092350043
144042000 -0.010453961 0.040398657
153041500 -0.013261741 -0.011669808
162041000 -0.01121931 -0.063721314
171040500 -0.003808515 -0.115924075
180040000 0.009256055 -0.168573141
189039500 0.028428593 -0.221913948
198039000 0.054680734 -0.275209903
207038500 0.088791526 -0.328993618
216038000 0.13264133 -0.381854981
225037500 0.187909707 -0.432462841
234037000 0.256156712 -0.479569077
243036500 0.34084475 -0.518665254
252036000 0.442779928 -0.545502424
261035500 0.56230688 -0.550449967
270035000 0.697062373 -0.524062871
279034500 0.834863901 -0.454846173
288034000 0.958489716 -0.335971206
297033500 1.044297933 -0.170926213
306033000 1.076424479 0.03262693
315032500 1.025881409 0.218565329
324032000 0.923719406 0.369558125
333031500 0.784663319 0.468869984
342031000 0.643857121 0.520043194
351030500 0.514110863 0.534294068
360030000 0.401156544 0.516797423
369029500 0.307943463 0.482480555
378029000 0.226255536 0.439667642
387028500 0.166143283 0.391851246
396028000 0.115691803 0.343688398
405027500 0.074610836 0.290433555
414027000 0.043659526 0.238817393
423026500 0.018606599 0.186462655
432026000 0.000495343 0.134728163
441025500 -0.012404395 0.080958887
450025000 -0.019370997 0.027480263
459024500 -0.021639382 -0.02359323
468024000 -0.018898544 -0.076496794
477023500 -0.009563349 -0.128695756
486023000 0.004184096 -0.184591293
495022500 0.022012218 -0.239012911
504022000 0.050760731 -0.294366508
513021500 0.08321809 -0.350604146
522021000 0.130559504 -0.403728574
531020500 0.188512906 -0.457389801
540020000 0.260287672 -0.506248831
549019500 0.349552929 -0.546270251
558019000 0.4552643 -0.570731401
567018500 0.585041105 -0.576175987
576018000 0.723076403 -0.548819541
585017500 0.86394 -0.475220829
594017000 0.994787454 -0.35212326
603016500 1.083950757 -0.189888387
612016000 1.115229487 0.011102011
621015500 1.067979454 0.20179595
630015000 0.978101134 0.371767133
639014500 0.842116653 0.487863957
648014000 0.690766215 0.553787887
657013500 0.544163942 0.57816261
666013000 0.415094643 0.560824275
675012500 0.310618609 0.532145798
684012000 0.222272843 0.48370561
693011500 0.153735756 0.430231124
702011000 0.093978069 0.373394131
711010500 0.051120664 0.314089983
720010000 0.017990017 0.25352171
729009500 -0.008377254 0.19676952
738009000 -0.029434863 0.138117581
747008500 -0.040834516 0.08143635
756008000 -0.046492643 0.021193288
765007500 -0.049109917 -0.033696364
774007000 -0.043700434 -0.089136287
783006500 -0.034788224 -0.150074273
792006000 -0.018978539 -0.206220746
801005500 0.007842704 -0.263495773
810005000 0.032993428 -0.324743986
819004500 0.075796142 -0.376154929
828004000 0.124358281 -0.433234781
837003500 0.193488731 -0.484780579
846003000 0.260659486 -0.527166008
855002500 0.346813738 -0.570004224
864002000 0.452071338 -0.588442862
873001500 0.562391161 -0.592568695
882001000 0.692519009 -0.57244867
891000500 0.827811598 -0.528014481
900000000 0.969442307 -0.43154639
