# HZ S RI R 50
500000 0.005645553 0.048547107
695000 0.009360135 0.066596731
890000 0.013738337 0.084037199
1085000 0.01887311 0.101374253
1280000 0.025106228 0.118226774
1475000 0.031866211 0.13478437
1670000 0.03929292 0.150669172
1865000 0.047359112 0.166238054
2060000 0.056137919 0.18119347
2255000 0.065943531 0.195434883
2450000 0.076073378 0.209181666
2645000 0.086461119 0.222442686
2840000 0.097795747 0.235095262
3035000 0.10922791 0.246897652
3230000 0.12137442 0.258357644
3425000 0.13347575 0.269060581
3620000 0.146326467 0.279207795
3815000 0.159186586 0.288685292
4010000 0.172602564 0.297510594
4205000 0.185789421 0.305397421
4400000 0.199559822 0.31288731
4595000 0.213270321 0.319789558
4790000 0.227229714 0.326608747
4985000 0.241108059 0.331665337
5180000 0.25506711 0.336725354
5375000 0.268719375 0.34125775
5570000 0.282654225 0.34547162
5765000 0.296127408 0.34994027
5960000 0.310451537 0.35390836
6155000 0.325529068 0.353561937
6350000 0.340320199 0.354461073
6545000 0.353908777 0.355720162
6740000 0.366822808 0.35631147
6935000 0.379732668 0.356643497
7130000 0.393243789 0.356547296
7325000 0.406091392 0.355753421
7520000 0.41895613 0.354851722
7715000 0.431544959 0.353323221
7910000 0.444210976 0.35156995
8105000 0.45645824 0.34934929
8300000 0.468599408 0.347008675
8495000 0.480572491 0.343999832
8690000 0.49247685 0.340782195
8885000 0.503971517 0.337610274
9080000 0.515209436 0.333569079
9275000 0.526420831 0.32970646
9470000 0.537342011 0.325552463
9665000 0.548007607 0.32119432
9860000 0.558520615 0.316384881
10055000 0.568860471 0.311363637
10250000 0.578944563 0.306229203
10445000 0.588717043 0.300864726
10640000 0.598292171 0.295201182
10835000 0.607568621 0.289800524
11030000 0.616890549 0.283858448
11225000 0.626162171 0.277872979
11420000 0.634548246 0.271799981
11615000 0.643250465 0.265478879
11810000 0.65204823 0.258940786
12005000 0.660073518 0.252453535
12200000 0.668152213 0.245977997
12395000 0.676099658 0.238968402
12590000 0.683824479 0.232172086
12785000 0.69112426 0.22497563
12980000 0.698302507 0.217918068
13175000 0.705552875 0.21085909
13370000 0.71252489 0.203744381
13565000 0.719263374 0.196270853
13760000 0.725929081 0.188977301
13955000 0.732486426 0.181261017
14150000 0.738725483 0.173694908
14345000 0.744997859 0.165710285
14540000 0.750802755 0.158182263
14735000 0.756551563 0.150253966
14930000 0.762349963 0.14257133
15125000 0.768134355 0.134356811
15320000 0.773337423 0.126433655
15515000 0.778546273 0.118333317
15710000 0.783544301 0.110350213
15905000 0.788732111 0.101986877
16100000 0.793668985 0.093883633
16295000 0.797998845 0.085528872
16490000 0.80280745 0.077146098
16685000 0.807403683 0.068618498
16880000 0.811899483 0.060405585
17075000 0.815802395 0.051630742
17270000 0.81987828 0.043142613
17465000 0.824002027 0.034484837
17660000 0.827707886 0.025938868
17855000 0.831792414 0.017146127
18050000 0.835299074 0.008522002
18245000 0.838844895 -0.000195539
18440000 0.842266559 -0.008693184
18635000 0.845381498 -0.017684061
18830000 0.848837912 -0.026541488
19025000 0.851833105 -0.035143665
19220000 0.855068922 -0.044061806
19415000 0.858173727 -0.052980247
19610000 0.861021459 -0.062157034
19805000 0.864018976 -0.071337774
20000000 0.866432726 -0.080381795
