# HZ S RI R 50
500000 -0.983230948 0.075000002
695000 -0.978590369 0.100194759
890000 -0.973567843 0.124921761
1085000 -0.967746019 0.148919001
1280000 -0.961420059 0.17262791
1475000 -0.954825699 0.195865079
1670000 -0.947787761 0.218842908
1865000 -0.939910829 0.241173967
2060000 -0.931870818 0.263663262
2255000 -0.922921836 0.284876942
2450000 -0.913416266 0.306551903
2645000 -0.903947055 0.327139794
2840000 -0.893692195 0.347499907
3035000 -0.883390486 0.367391884
3230000 -0.872374355 0.38679853
3425000 -0.861359834 0.405896425
3620000 -0.849529922 0.42456144
3815000 -0.837726652 0.442966639
4010000 -0.82498306 0.460440188
4205000 -0.812392294 0.477752149
4400000 -0.799844861 0.494769573
4595000 -0.786695301 0.510918498
4790000 -0.773238718 0.527381598
4985000 -0.759419679 0.542509019
5180000 -0.745454668 0.557556569
5375000 -0.731945335 0.571998894
5570000 -0.71819359 0.585614025
5765000 -0.706398427 0.598335266
5960000 -0.694014906 0.612497568
6155000 -0.673911035 0.627420127
6350000 -0.656714677 0.64098078
6545000 -0.642495632 0.65252465
6740000 -0.627398967 0.663040339
6935000 -0.612250745 0.673904478
7130000 -0.596867322 0.68428874
7325000 -0.581594765 0.694246649
7520000 -0.565946638 0.704392135
7715000 -0.550409734 0.713153898
7910000 -0.53495258 0.722298026
8105000 -0.519176065 0.730798006
8300000 -0.503383815 0.738925218
8495000 -0.487900376 0.746504783
8690000 -0.472129821 0.753778815
8885000 -0.456357985 0.760746955
9080000 -0.44062671 0.76742655
9275000 -0.425151377 0.773465096
9470000 -0.409634351 0.779507517
9665000 -0.394046127 0.784846007
9860000 -0.378034114 0.790171027
10055000 -0.362550139 0.794914841
10250000 -0.347337931 0.798950552
10445000 -0.331983387 0.802818894
10640000 -0.317371159 0.806507229
10835000 -0.302887022 0.810148298
11030000 -0.288083642 0.813720524
11225000 -0.273477017 0.817061305
11420000 -0.258540689 0.820008993
11615000 -0.243627771 0.82274574
11810000 -0.229007214 0.824927389
12005000 -0.214308798 0.826704621
12200000 -0.199882298 0.828483343
12395000 -0.185715645 0.829761743
12590000 -0.171228364 0.830887734
12785000 -0.157137617 0.831745564
12980000 -0.143542334 0.831997692
13175000 -0.129928559 0.832618892
13370000 -0.116039723 0.83277285
13565000 -0.102563381 0.833030939
13760000 -0.088945262 0.83270204
13955000 -0.075689211 0.832140624
14150000 -0.062413111 0.831286966
14345000 -0.049198366 0.830355584
14540000 -0.036084227 0.828882873
14735000 -0.023014651 0.827470421
14930000 -0.010282636 0.825317263
15125000 0.002224289 0.823194444
15320000 0.014454348 0.820542514
15515000 0.026112852 0.818021178
15710000 0.037682257 0.815186202
15905000 0.04920065 0.81218487
16100000 0.060083642 0.808725237
16295000 0.070333905 0.805657625
16490000 0.080380059 0.802880048
16685000 0.090381823 0.800336062
16880000 0.100796066 0.79779309
17075000 0.111118882 0.795036077
17270000 0.121537752 0.791814327
17465000 0.131596371 0.788299202
17660000 0.141138076 0.784515082
17855000 0.149968892 0.78074491
18050000 0.158570617 0.777368426
18245000 0.167393162 0.77529627
18440000 0.177328497 0.772917747
18635000 0.187518894 0.769585192
18830000 0.19800347 0.765730559
19025000 0.20801866 0.760773777
19220000 0.217046976 0.755216777
19415000 0.225401729 0.750009894
19610000 0.232919037 0.7440117
19805000 0.239858791 0.738605201
20000000 0.245965331 0.733213365
