# HZ S RI R 50
500000 -0.982596457 0.075096778
695000 -0.978071272 0.100346975
890000 -0.972965478 0.125146821
1085000 -0.96725887 0.149417787
1280000 -0.960897743 0.173452645
1475000 -0.954259395 0.196573182
1670000 -0.947172462 0.219623938
1865000 -0.939256608 0.242165014
2060000 -0.931211292 0.264434307
2255000 -0.922120809 0.28637889
2450000 -0.913012027 0.307565569
2645000 -0.903161287 0.32841444
2840000 -0.89299041 0.34866634
3035000 -0.882547378 0.368727236
3230000 -0.871516644 0.388404905
3425000 -0.860288918 0.407482177
3620000 -0.848488688 0.426186501
3815000 -0.836456358 0.44464159
4010000 -0.823941588 0.462299972
4205000 -0.811130464 0.479661017
4400000 -0.798181176 0.496560811
4595000 -0.784882485 0.513032436
4790000 -0.77110219 0.52924019
4985000 -0.757965803 0.54441446
5180000 -0.743950128 0.559720635
5375000 -0.729850888 0.57390666
5570000 -0.716203272 0.587945759
5765000 -0.704479992 0.600585877
5960000 -0.691570997 0.614721477
6155000 -0.671502351 0.62973833
6350000 -0.654369175 0.643238127
6545000 -0.63992536 0.654840588
6740000 -0.624954462 0.665511369
6935000 -0.609818041 0.676089644
7130000 -0.594190001 0.68654567
7325000 -0.578854203 0.696636736
7520000 -0.562992691 0.706233084
7715000 -0.547267675 0.715516149
7910000 -0.531474113 0.724323511
8105000 -0.516023695 0.732765614
8300000 -0.499990582 0.740921735
8495000 -0.484426796 0.748469471
8690000 -0.468540906 0.755740761
8885000 -0.4530465 0.76288861
9080000 -0.437140494 0.769556939
9275000 -0.421065419 0.775594472
9470000 -0.405639141 0.781673908
9665000 -0.390130698 0.78695178
9860000 -0.374290823 0.792097091
10055000 -0.358556061 0.796568214
10250000 -0.343251585 0.800923287
10445000 -0.328004866 0.804578423
10640000 -0.313117504 0.807921886
10835000 -0.298630684 0.811725616
11030000 -0.283895522 0.815280199
11225000 -0.268948495 0.818355381
11420000 -0.254026323 0.821517407
11615000 -0.239237174 0.824021518
11810000 -0.224340766 0.82625705
12005000 -0.209547668 0.827933371
12200000 -0.195279091 0.829519748
12395000 -0.18091759 0.830895364
12590000 -0.16645129 0.831906139
12785000 -0.152513593 0.832447052
12980000 -0.138562202 0.832832157
13175000 -0.124949716 0.833298563
13370000 -0.11122591 0.833607017
13565000 -0.0976637 0.833626389
13760000 -0.083890572 0.833230495
13955000 -0.070484891 0.832670688
14150000 -0.057134993 0.831867158
14345000 -0.044021964 0.830840408
14540000 -0.030813984 0.82939589
14735000 -0.018017768 0.827792286
14930000 -0.005164734 0.825761854
15125000 0.007470966 0.823464512
15320000 0.019299222 0.820529043
15515000 0.03139232 0.817872464
15710000 0.042975537 0.815002679
15905000 0.054448239 0.811717212
16100000 0.065294772 0.808086276
16295000 0.075478225 0.804835379
16490000 0.085140965 0.801903784
16685000 0.095097035 0.799395322
16880000 0.105212755 0.797369241
17075000 0.115701653 0.794504702
17270000 0.126242771 0.791438043
17465000 0.136944815 0.788019001
17660000 0.146800398 0.783756613
17855000 0.15588051 0.779592156
18050000 0.163899481 0.776192069
18245000 0.172185659 0.773898839
18440000 0.181776925 0.771695017
18635000 0.191989853 0.768447875
18830000 0.202343329 0.764669418
19025000 0.212231621 0.759929835
19220000 0.220827803 0.754981875
19415000 0.229134082 0.749685704
19610000 0.236799836 0.744097709
19805000 0.243586435 0.738931894
20000000 0.250191509 0.734173953
