# HZ S RI R 50
50000000 0.05347228 0.140642553
58500000 0.625336885 0.032352667
67000000 -0.60536015 -0.037004824
75500000 -0.005757341 0.345186084
84000000 0.506301164 -0.000572867
92500000 -0.307508289 0.055992405
101000000 0.048935607 0.182060584
109500000 0.161767527 -0.123809278
118000000 -0.063121512 0.023994417
126500000 0.01732636 0.030797177
135000000 0.012874516 0.007423789
143500000 0.001633808 0.002572258
152000000 0.001240692 0.000743844
160500000 -0.003246788 -0.01406026
169000000 -0.033911194 -0.010253986
177500000 0.012841338 0.01643371
186000000 0.016370322 -0.021881472
194500000 -0.075950004 -0.059539847
203000000 0.019261749 0.081191703
211500000 0.044489238 -0.087606675
220000000 -0.072763465 -0.052752614
228500000 -0.000789595 0.019807646
237000000 0.034202244 -0.059556402
245500000 -0.048077978 -0.071156457
254000000 -0.011742601 -0.051246665
262500000 -0.036920849 -0.026884846
271000000 0.059686992 -0.02494971
279500000 0.051445901 -0.1500196
288000000 -0.077615574 0.001200275
296500000 0.165880858 -0.029108788
305000000 -0.011948609 -0.244969815
313500000 -0.120842419 0.038173306
322000000 0.186491459 0.027474248
330500000 0.002517903 -0.282169491
339000000 -0.112120151 0.02089441
347500000 0.154890134 0.03097466
356000000 0.030798383 -0.208779036
364500000 -0.052409704 0.015235806
373000000 0.110055588 -0.019879534
381500000 0.054833739 -0.146301224
390000000 -0.035201199 -0.029226707
398500000 0.043979253 0.001608912
407000000 0.057092025 -0.049383983
415500000 0.002451229 -0.02731111
424000000 0.019910834 -0.01487354
432500000 0.016436951 -0.003912392
441000000 0.016897004 -0.0081544
449500000 0.003883372 0.000173337
458000000 -0.005381149 0.005737729
466500000 -0.006401785 0.012985989
475000000 -0.009447086 -0.001065183
483500000 -0.03701226 -0.005507188
492000000 -0.03334112 0.011081792
500500000 -0.025331685 -0.00645682
509000000 -0.055000994 -0.015055218
517500000 -0.05546537 -0.009832124
526000000 -0.052283961 -0.008059404
534500000 -0.061451353 -0.044575922
543000000 -0.095428615 -0.041395913
551500000 -0.096435643 -0.002084053
560000000 -0.050157573 -0.012055885
568500000 -0.018522066 -0.07284221
577000000 -0.074921824 -0.122201897
585500000 -0.135625094 -0.082487396
594000000 -0.09406951 -0.030795186
602500000 -0.051065541 -0.072965696
611000000 -0.0556368 -0.135858044
619500000 -0.117460735 -0.116734206
628000000 -0.087532714 -0.109625384
636500000 -0.10346686 -0.128623634
645000000 -0.148723021 -0.098349444
653500000 -0.067013546 -0.041421692
662000000 -0.035852856 -0.132601588
670500000 -0.090460367 -0.067364297
679000000 0.041542783 -0.068440683
687500000 -0.025971159 -0.202287763
696000000 -0.052450958 -0.107350818
704500000 0.005211261 -0.087768942
713000000 -0.003756846 -0.132703557
721500000 -0.015505786 -0.072220489
730000000 0.008535642 -0.052074216
738500000 0.026951061 -0.037827007
747000000 0.024651082 -0.029917709
755500000 0.017707986 -0.005091717
764000000 0.01106493 0.017389237
772500000 2.863e-05 0.042811859
781000000 -0.000380116 0.052356824
789500000 -0.039371378 0.05368179
798000000 -0.073380045 0.100213602
806500000 -0.04342005 0.127292305
815000000 -0.038051471 0.066602356
823500000 -0.154851734 0.088967464
832000000 -0.108673453 0.177612975
840500000 -0.054871521 0.069533437
849000000 -0.198112532 0.039128169
857500000 -0.203995808 0.168814137
866000000 -0.091460324 0.086585693
874500000 -0.211657747 0.034644462
883000000 -0.23016934 0.153164803
891500000 -0.119202934 0.133639216
900000000 -0.200344502 0.012413908
