# HZ S RI R 50
100000 1.000236153 -0.003764552
399000 0.69222927 0.49735254
698000 0.887660205 0.026489764
997000 0.696891844 0.371990352
1296000 0.698436498 -0.149634465
1595000 0.641261458 0.376275569
1894000 0.297060042 0.216001778
2193000 0.536798536 0.326875209
2492000 0.301064372 0.304716289
2791000 0.352896422 0.215956196
3090000 0.221039116 0.280464649
3389000 0.224108219 0.235627681
3688000 0.147702768 0.1916119
3987000 0.141771152 0.149358317
4286000 0.069189533 0.123233541
4585000 0.057888876 0.059038609
4884000 0.008586773 0.038367059
5183000 -0.01292502 -0.003647995
5482000 -0.04287343 -0.049182165
5781000 -0.04062258 -0.081082992
6080000 -0.094275899 -0.114697709
6379000 -0.073161751 -0.190799146
6678000 -0.102971315 -0.18811798
6977000 -0.127147048 -0.276389777
7276000 -0.118861868 -0.299168258
7575000 -0.174022257 -0.341027885
7874000 -0.158149525 -0.364897668
8173000 -0.102239184 -0.350268453
8472000 -0.124010331 -0.47149825
8771000 -0.137184962 -0.560786187
9070000 -0.228636413 -0.52862215
9369000 -0.169994145 -0.634559154
9668000 -0.094937853 -0.514461934
9967000 -0.193668141 -0.71225363
10266000 -0.030254978 -0.762881755
10565000 -0.182011857 -0.774993419
10864000 -0.08501897 -0.953914403
11163000 -0.164139762 -0.838491857
11462000 -0.117239512 -0.989064693
11761000 0.163954615 -0.754560708
12060000 0.305772453 -0.999803721
12359000 0.459547817 -1.098579287
12658000 0.509878516 -1.187949895
12957000 0.574562847 -0.989419698
13256000 0.702308356 -1.108932495
13555000 0.612843096 -0.501666486
13854000 0.403575301 -0.465747058
14153000 0.554585039 -0.004986975
14452000 0.383353471 -0.032349161
14751000 0.278360396 0.074160136
15050000 0.0744358 0.022032678
15349000 -0.056509044 0.073819197
15648000 -0.16265884 0.012146219
15947000 -0.263542175 0.06852103
16246000 -0.371581435 -0.030542753
16545000 -0.407169401 -0.003551087
16844000 -0.563168644 -0.022372631
17143000 -0.497908383 0.062969014
17442000 -0.4754844 0.053785812
17741000 -0.579254388 -0.120768643
18040000 -0.671138584 -0.074496574
18339000 -0.717630445 -0.052283003
18638000 -0.708203434 0.01606466
18937000 -0.742759466 -0.038491472
19236000 -0.700654923 0.047706622
19535000 -0.716356813 -0.008242827
19834000 -0.775897502 -0.11852131
20133000 -0.855930149 0.004826101
20432000 -0.831025719 0.059487693
20731000 -0.729489922 0.201156184
21030000 -0.73279643 -0.004127259
21329000 -0.733208417 -0.008761564
21628000 -0.752891004 0.099851705
21927000 -0.75016117 0.04357272
22226000 -0.717003345 0.115690082
22525000 -0.671939313 0.165433898
22824000 -0.508158981 0.11820288
23123000 -0.539155483 -0.015430787
23422000 -0.60218054 0.060217585
23721000 -0.507292032 0.071980647
24020000 -0.413095265 0.062904082
24319000 -0.351647824 -0.007746321
24618000 -0.262248277 -0.02374641
24917000 -0.174339681 -0.062212359
25216000 -0.034723177 -0.140517607
25515000 0.084422215 -0.165233463
25814000 0.260178655 -0.208453074
26113000 0.424880832 -0.196138292
26412000 0.628897249 -0.039254147
26711000 0.968820691 0.732106268
27010000 1.085944056 0.574520766
27309000 1.044589281 1.259381055
27608000 0.438334941 1.388124346
27907000 0.676526248 1.600840687
28206000 0.341574966 1.376092672
28505000 0.443883806 0.881705105
28804000 -0.234718278 1.151995658
29103000 -0.283780336 1.079407691
29402000 -0.146406576 1.159960389
29701000 -0.246111229 0.942086875
30000000 -0.118902966 0.853214204
