# HZ S RI R 50
500000 -0.476563841 -0.872851371
695000 -0.716593265 -0.685164511
890000 -0.836039483 -0.528237342
1085000 -0.900188267 -0.403706133
1280000 -0.936447858 -0.303495079
1475000 -0.956669747 -0.22053188
1670000 -0.967840433 -0.15055871
1865000 -0.97327274 -0.089856937
2060000 -0.974473357 -0.035631891
2255000 -0.972880005 0.012584119
2450000 -0.968573272 0.056820105
2645000 -0.962983489 0.096782617
2840000 -0.956178784 0.134276941
3035000 -0.948290526 0.169352099
3230000 -0.939674317 0.202237084
3425000 -0.929880738 0.233197435
3620000 -0.919561445 0.262361228
3815000 -0.908597409 0.290330141
4010000 -0.897102236 0.316670656
4205000 -0.885269999 0.341990351
4400000 -0.873077213 0.366233408
4595000 -0.860067009 0.38949415
4790000 -0.847374618 0.411598533
4985000 -0.833664298 0.432967305
5180000 -0.820029675 0.453217208
5375000 -0.806471884 0.472787201
5570000 -0.792726814 0.491129487
5765000 -0.780743002 0.507816493
5960000 -0.768682301 0.525802671
6155000 -0.748840987 0.545277774
6350000 -0.731674313 0.563015699
6545000 -0.717031896 0.577682495
6740000 -0.70220071 0.591431319
6935000 -0.686913669 0.605315327
7130000 -0.671430766 0.619043231
7325000 -0.655854821 0.632023394
7520000 -0.640377402 0.64439845
7715000 -0.624381899 0.656271874
7910000 -0.608538746 0.667592883
8105000 -0.592847406 0.678635239
8300000 -0.576969027 0.688845753
8495000 -0.560983836 0.698920965
8690000 -0.54501599 0.708456754
8885000 -0.529348254 0.717574298
9080000 -0.513391494 0.726074814
9275000 -0.497425585 0.733954787
9470000 -0.481665492 0.741622984
9665000 -0.465910017 0.748865544
9860000 -0.450436115 0.756148278
10055000 -0.43497309 0.762511909
10250000 -0.419191986 0.768824458
10445000 -0.403703391 0.774664223
10640000 -0.388395428 0.780204057
10835000 -0.372992753 0.785164594
11030000 -0.357855826 0.789845466
11225000 -0.342573672 0.79460597
11420000 -0.327556133 0.798525393
11615000 -0.312754392 0.802407443
11810000 -0.297665864 0.806144118
12005000 -0.282981604 0.809271156
12200000 -0.268435388 0.812040627
12395000 -0.253790169 0.814705193
12590000 -0.239570543 0.816962659
12785000 -0.225248619 0.819092929
12980000 -0.211055561 0.820579409
13175000 -0.197165504 0.822308063
13370000 -0.183307528 0.823595821
13565000 -0.169620692 0.824520945
13760000 -0.155927702 0.825637221
13955000 -0.142407417 0.826182246
14150000 -0.128900021 0.826554238
14345000 -0.115828305 0.826631486
14540000 -0.102915175 0.826360642
14735000 -0.090076126 0.826163768
14930000 -0.07731042 0.825871348
15125000 -0.064772039 0.825373291
15320000 -0.052570037 0.824791431
15515000 -0.040111046 0.824004173
15710000 -0.027666106 0.822764515
15905000 -0.015520106 0.821854114
16100000 -0.003505328 0.820360183
16295000 0.008484686 0.818669617
16490000 0.020085219 0.816758453
16685000 0.032011166 0.814690768
16880000 0.043276872 0.812432646
17075000 0.054680436 0.809894919
17270000 0.065540254 0.807546555
17465000 0.076310522 0.804548919
17660000 0.087149873 0.801812708
17855000 0.097514063 0.798480868
18050000 0.106929466 0.795276403
18245000 0.116514414 0.792612612
18440000 0.125842198 0.790257692
18635000 0.135905787 0.78794384
18830000 0.146238192 0.785259246
19025000 0.156254887 0.782194495
19220000 0.166268154 0.778605043
19415000 0.176175534 0.774657309
19610000 0.185256823 0.769218623
19805000 0.190578609 0.768989145
20000000 0.202803626 0.765544831
