# HZ S RI R 50
500000 0.999729096 0.042253058
695000 1.000715136 0.009178864
890000 1.000519156 -0.013711668
1085000 0.999830842 -0.032582938
1280000 0.99958688 -0.049409784
1475000 0.998450458 -0.064207278
1670000 0.997104823 -0.078086838
1865000 0.996391952 -0.091135442
2060000 0.995310485 -0.10463614
2255000 0.994387447 -0.116788946
2450000 0.992364883 -0.129723072
2645000 0.991518318 -0.142020955
2840000 0.988884091 -0.154369935
3035000 0.987298071 -0.166584134
3230000 0.985548198 -0.178901821
3425000 0.983337998 -0.191261991
3620000 0.980710923 -0.204334229
3815000 0.977136552 -0.217744395
4010000 0.971396923 -0.23211649
4205000 0.956743836 -0.241243034
4400000 0.961323618 -0.234587147
4595000 0.96787399 -0.25062105
4790000 0.966618835 -0.265989065
4985000 0.964188575 -0.28030771
5180000 0.961101055 -0.294278442
5375000 0.956986248 -0.307742953
5570000 0.953838467 -0.320524483
5765000 0.950666546 -0.332546502
5960000 0.947591602 -0.346639811
6155000 0.936266124 -0.366331577
6350000 0.925662457 -0.384441345
6545000 0.915145754 -0.399486124
6740000 0.897663593 -0.414450734
6935000 0.87078613 -0.423871487
7130000 0.836347699 -0.412331938
7325000 0.830976724 -0.368285328
7520000 0.872656583 -0.354379415
7715000 0.899050593 -0.377053856
7910000 0.907685577 -0.404303103
8105000 0.907410025 -0.428012222
8300000 0.903732538 -0.449237823
8495000 0.897934615 -0.468445032
8690000 0.890963196 -0.486208885
8885000 0.883087635 -0.503817141
9080000 0.874310016 -0.520480573
9275000 0.865159571 -0.53692913
9470000 0.854677736 -0.553654789
9665000 0.843209803 -0.568518877
9860000 0.831332445 -0.584218025
10055000 0.817423105 -0.597255468
10250000 0.803852438 -0.609669685
10445000 0.791631877 -0.619455218
10640000 0.782135903 -0.629430711
10835000 0.77402395 -0.643723428
11030000 0.764538764 -0.661283731
11225000 0.750074625 -0.681386768
11420000 0.731953144 -0.701385319
11615000 0.709220051 -0.719966113
11810000 0.683094084 -0.736719727
12005000 0.653215527 -0.751367568
12200000 0.617913842 -0.762340068
12395000 0.578226745 -0.767693877
12590000 0.532266736 -0.763662815
12785000 0.483096867 -0.743299305
12980000 0.43989703 -0.699472486
13175000 0.42339757 -0.631901264
13370000 0.452462047 -0.564620792
13565000 0.516532957 -0.533367156
13760000 0.580165624 -0.54809761
13955000 0.619218826 -0.589668989
14150000 0.633527934 -0.63894546
14345000 0.629458129 -0.684374094
14540000 0.614826977 -0.724480688
14735000 0.592333674 -0.758585393
14930000 0.563871741 -0.785304784
15125000 0.534617424 -0.802982389
15320000 0.508807957 -0.823000311
15515000 0.473190754 -0.836884856
15710000 0.438864856 -0.844371557
15905000 0.406256496 -0.84523046
16100000 0.37560895 -0.842680633
16295000 0.350589692 -0.836249411
16490000 0.331871628 -0.82911849
16685000 0.319267064 -0.827369451
16880000 0.306024223 -0.834276556
17075000 0.285342276 -0.846334755
17270000 0.256171792 -0.856787741
17465000 0.221956834 -0.861670017
17660000 0.187650635 -0.861341416
17855000 0.153319567 -0.858445644
18050000 0.118560962 -0.85422641
18245000 0.078737355 -0.850206375
18440000 0.032190922 -0.839703798
18635000 -0.019135363 -0.818647682
18830000 -0.070009499 -0.783460617
19025000 -0.115318365 -0.733873605
19220000 -0.149571403 -0.671344339
19415000 -0.166888833 -0.59770894
19610000 -0.162254646 -0.518622756
19805000 -0.131811156 -0.444136053
20000000 -0.077275156 -0.385040432
