# HZ S RI R 50
500000 -0.98939538 0.112639494
695000 -0.982217609 0.153395384
890000 -0.973465085 0.193746462
1085000 -0.963071346 0.233041152
1280000 -0.951026678 0.271680861
1475000 -0.937496483 0.309306055
1670000 -0.922258138 0.345862239
1865000 -0.905865311 0.381764024
2060000 -0.888387918 0.417094022
2255000 -0.868965804 0.450553148
2450000 -0.848894953 0.483330219
2645000 -0.827362716 0.514486432
2840000 -0.805028498 0.544897973
3035000 -0.781732618 0.573867857
3230000 -0.757311105 0.601856529
3425000 -0.732424378 0.628351807
3620000 -0.706522583 0.65385884
3815000 -0.67995131 0.677728712
4010000 -0.652605414 0.700772523
4205000 -0.624876141 0.722336232
4400000 -0.595639169 0.741714656
4595000 -0.56966567 0.759473681
4790000 -0.541358709 0.778204798
4985000 -0.512223362 0.794726431
5180000 -0.482955843 0.810142636
5375000 -0.45411095 0.824215412
5570000 -0.425529032 0.836916744
5765000 -0.398890823 0.848688423
5960000 -0.371166944 0.860942304
6155000 -0.335972815 0.870252311
6350000 -0.30343315 0.878588855
6545000 -0.274483233 0.883863329
6740000 -0.249393805 0.887926518
6935000 -0.22240056 0.895163416
7130000 -0.193799033 0.900302648
7325000 -0.165568798 0.904007911
7520000 -0.137557342 0.906671881
7715000 -0.110083751 0.908643841
7910000 -0.082886204 0.909770667
8105000 -0.05603319 0.910104215
8300000 -0.029478181 0.909624993
8495000 -0.003302205 0.908293128
8690000 0.022359251 0.906592905
8885000 0.047576203 0.904241859
9080000 0.072832509 0.900504708
9275000 0.097418174 0.8973791
9470000 0.121447883 0.893118441
9665000 0.14487344 0.888244986
9860000 0.168026715 0.882918655
10055000 0.190933063 0.877177834
10250000 0.213326394 0.871275901
10445000 0.235468313 0.864714562
10640000 0.257227867 0.857619166
10835000 0.27841416 0.850213527
11030000 0.299017488 0.842186808
11225000 0.319480717 0.834288418
11420000 0.33957827 0.825447797
11615000 0.359179139 0.816316485
11810000 0.377879083 0.807120025
12005000 0.396368265 0.797719061
12200000 0.414615899 0.788619816
12395000 0.432634502 0.778998672
12590000 0.450416326 0.768766582
12785000 0.467877656 0.75841999
12980000 0.48469302 0.747916281
13175000 0.501329541 0.737003386
13370000 0.517650008 0.7260136
13565000 0.533759713 0.714773237
13760000 0.549379169 0.703382074
13955000 0.56453973 0.691754341
14150000 0.579520642 0.679896593
14345000 0.594328701 0.668116092
14540000 0.608482956 0.655770301
14735000 0.622540295 0.643167257
14930000 0.636298537 0.630819797
15125000 0.649791955 0.618273496
15320000 0.662926018 0.605755984
15515000 0.675519406 0.592715442
15710000 0.688184142 0.579649746
15905000 0.700463652 0.56672877
16100000 0.712545871 0.553388237
16295000 0.724236786 0.539907217
16490000 0.735639631 0.526470005
16685000 0.746991336 0.512677669
16880000 0.757761955 0.499109834
17075000 0.768455445 0.485170722
17270000 0.778803288 0.471396118
17465000 0.789055049 0.457399576
17660000 0.799131333 0.443321317
17855000 0.808657944 0.428830265
18050000 0.818176746 0.414672344
18245000 0.82759571 0.400349259
18440000 0.836312472 0.386318504
18635000 0.845341026 0.37165904
18830000 0.854417622 0.357177913
19025000 0.862783253 0.342694491
19220000 0.871160268 0.327552646
19415000 0.87966603 0.31281948
19610000 0.887398302 0.297518402
19805000 0.89534372 0.282261341
20000000 0.902616679 0.266991943
